! Touchstone file exported from HFSS 2023.1.0
!        File:           C:/Users/luhta/OneDrive/Documents/Ansoft/Project2.aedt
!        Generated:      6:39:57 PM  Mar 15, 2025
!        Design:         HFSSDesign1
!        Project:        Project2
!        Setup:          Setup1
!        Solution:       Sweep
!
# GHz S MA R 50.000000
! Terminal data exported
! Port[1] = stripline1_T1
! Port[2] = stripline1_T2
! Port[3] = stripline1_T3
! Port[4] = stripline1_T4
1                              0.418663857833988 179.970638915491 0.490408903934467 -0.0109600026863188 0.464163958055056 -0.0141742385802516 0.464090982211328 -0.0147134515420904 
                               0.490408903934449 -0.0109600026783159 0.385793956913873 179.970230744081 0.447729561986758 -0.012987696941043 0.447655469380741 -0.0153038644927568 
                               0.464163958055049 -0.0141742385904658 0.447729561986808 -0.0129876969660394 0.43129759852208 179.990076627816 0.519404086991432 0.00350393899685756 
                               0.464090982211356 -0.0147134515420474 0.447655469380786 -0.0153038645052472 0.519404086991472 0.00350393901030612 0.431150529950599 179.987114039088 
! Gamma     865.551413029872 867.028391083269 0                0                0                0                0                0                
!           0                0                968.846361636731 969.972333029855 -14.2013334779324 -14.0839222821783 -0.740103116854482 -0.713842552393802 
!           0                0                -14.2013334779238 -14.0839222822088 881.556877836607 883.036827893227 -67.6078574963248 -67.3799877369911 
!           0                0                -0.740103116839145 -0.713842552411127 -67.6078574963368 -67.3799877369569 977.832210171264 978.956024861809 
! Port Impedance         50               0                50               0                50               0                50               0                
1.018                          0.418664406564261 179.970889458064 0.490409082161346 -0.0110495001355864 0.464164560050138 -0.0141050641319259 0.464091359663819 -0.0147105897673943 
                               0.490409098921821 -0.0110484054812039 0.385795410477907 179.970475539011 0.447730983549863 -0.012864109732335 0.447656698822196 -0.0153207813771859 
                               0.464164546810419 -0.0140902639006141 0.447730940268892 -0.0128455577452728 0.431299267615789 179.99042845471  0.51940332608876 0.00343602035597551 
                               0.464091365942588 -0.0147275786325344 0.447656752976098 -0.0153379781581632 0.519403280053769 0.00346474511511271 0.431152948637854 179.987410751707 
! Gamma     873.27470845917  874.804342364021 0                0                0                0                0                0                
!           0                0                977.495245819312 978.666479948782 -14.3290100239933 -14.2089505688335 -0.746978086832417 -0.71991938395064 
!           0                0                -14.3289796532214 -14.2088513881139 889.423280044713 890.956527820274 -68.2137583416826 -67.9810802160887 
!           0                0                -0.746973910820774 -0.719909196412305 -68.2138602531691 -67.9815366075224 986.561337734562 987.73022665062  
! Port Impedance         50               0                50               0                50               0                50               0                
1.036                          0.418665087690129 179.971046682484 0.49040921433746 -0.0111518552548673 0.464165209406095 -0.0140789934711598 0.464091778062695 -0.0147416189956143 
                               0.490409247064285 -0.0111499275448794 0.385797021981775 179.970607063118 0.447732449999543 -0.0128008827571449 0.447657930523941 -0.0153843569498257 
                               0.464165192523473 -0.0140509371147257 0.447732377327194 -0.0127654658328894 0.431300994194394 179.990697945015 0.519402619701072 0.00339075388632507 
                               0.464091780305796 -0.0147737608322697 0.447658024767509 -0.0154173227254046 0.519402549866293 0.00344534516237931 0.431155324007585 179.987615639616 
! Gamma     880.931712582147 882.514767960785 0                0                0                0                0                0                
!           0                0                986.069985803829 987.287230160753 -14.4556157833641 -14.3328731008343 -0.753780062654128 -0.725935440620301 
!           0                0                -14.4555506276141 -14.3326893036805 897.22219160715  898.809433506495 -68.81452471345  -68.5770125758116 
!           0                0                -0.753771874718919 -0.725916314277924 -68.8147528454118 -68.5778622673723 995.215614049852 996.430395900819 
! Port Impedance         50               0                50               0                50               0                50               0                
1.054                          0.418665839806808 179.971118712932 0.490409298317294 -0.0112652278833847 0.46416587745518 -0.0140921426673739 0.464092214138368 -0.0148035313537871 
                               0.490409346109653 -0.0112627012018217 0.38579872085837 179.970634800209 0.447733924143822 -0.0127924207928087 0.447659137873064 -0.0154899610333804 
                               0.464165864922173 -0.0140523103327234 0.447733834012599 -0.0127417829375993 0.431302730887976 179.990892763935 0.519401975740277 0.00336534709094002 
                               0.464092203863101 -0.0148490723877125 0.447659259959951 -0.0155372875094446 0.519401900857946 0.00344305091709448 0.431157612349202 179.987738366291 
! Gamma     888.524155668411 890.160986971525 0                0                0                0                0                0                
!           0                0                994.572516719864 995.836061074475 -14.5811770333349 -14.4557130854735 -0.760511869187979 -0.73189303757857 
!           0                0                -14.5810741504463 -14.4554581530883 904.955368648071 906.596891973814 -69.4102897804515 -69.1678890015134 
!           0                0                -0.760499860050906 -0.731866122405448 -69.4106616694501 -69.1690731775755 1003.79699737492 1005.05802088011 
! Port Impedance         50               0                50               0                50               0                50               0                
1.072                          0.418666611451383 179.97111345833  0.490409333182594 -0.0113879574663774 0.464166540332468 -0.014140767964855 0.464092648458869 -0.0148934134872124 
                               0.490409395058229 -0.0113850397652721 0.385800447684508 179.97056804609  0.447735375285969 -0.0128333559152652 0.44766029930982 -0.0156331799694106 
                               0.464166538707072 -0.0140905698728425 0.447735277857952 -0.0127690878110637 0.431304438605939 179.991020241595 0.519401399733355 0.00335723630082396 
                               0.464092618815729 -0.0149506883297725 0.447660438649464 -0.0156934893484839 0.519401335428514 0.00345541585953567 0.43115977900418 179.987788032337 
! Gamma     896.053665380707 897.744294115493 0                0                0                0                0                0                
!           0                0                1003.00465899276 1004.31442279462 -14.7057186569787 -14.5774933207982 -0.76717619655178 -0.737794295071824 
!           0                0                -14.7055763639538 -14.5771796511632 912.624463593332 914.320225508603 -70.0011789185977 -69.7538117729988 
!           0                0                -0.767160577757994 -0.737760647596234 -70.0017062485941 -69.7552759570001 1012.30732952737 1013.61456220485 
! Port Impedance         50               0                50               0                50               0                50               0                
1.09                           0.418667360003721 179.971038544498 0.49040931901579 -0.0115185524472846 0.464167178427245 -0.0142212893174036 0.464093065002081 -0.015008467769955 
                               0.490409393933236 -0.0115154269933855 0.385802152986927 179.97041581712  0.447736778457368 -0.0129185778231761 0.447661397707922 -0.0158098374341101 
                               0.464167192989817 -0.0141620615300348 0.447736682298205 -0.012842208795003 0.431306085551398 179.991087338086 0.519400895196051 0.00336407851899581 
                               0.46409301059154 -0.0150759037173085 0.4476615452136  -0.0158817913482653 0.519400854296102 0.00348022369378717 0.431161797182515 179.987773156447 
! Gamma     903.521777557818 905.265960477284 0                0                0                0                0                0                
!           0                0                1011.3681303993  1012.72373894803 -14.8292642916688 -14.6982361895403 -0.773775603328173 -0.743641156976139 
!           0                0                -14.8290819725168 -14.6978751115798 920.231036081755 921.980732356841 -70.5873105324729 -70.3348813090057 
!           0                0                -0.773756602134566 -0.743601745555012 -70.5879999698471 -70.3365753600296 1020.74834811031 1022.10145372756 
! Port Impedance         50               0                50               0                50               0                50               0                
1.108                          0.418668050673111 179.970901263184 0.490409256704375 -0.0116556792977223 0.464167775880789 -0.0143303072944542 0.464093450762202 -0.0151460279876108 
                               0.490409343582463 -0.0116525061610512 0.385803796135416 179.97018677995  0.44773811371779 -0.0130432548180277 0.447662419810753 -0.0160160079720636 
                               0.464167810778527 -0.0142633089432632 0.447738025958321 -0.0129562467185263 0.431307646324535 179.991100620152 0.519400463960959 0.00338374179741954 
                               0.464093367466182 -0.0152221476509074 0.447662567757584 -0.0160983146000875 0.519400456800072 0.00351547586705426 0.431163646897571 179.987701668008 
! Gamma     910.929945714588 912.727233926925 0                0                0                0                0                0                
!           0                0                1019.66455668837 1021.06540714878 -14.9518364582672 -14.8179636514651 -0.780312520304827 -0.749435407727007 
!           0                0                -14.9516143913603 -14.8175654506566 927.776562572998 929.579687100301 -71.1687967779044 -70.9111961890716 
!           0                0                -0.780290375214309 -0.749391117722614 -71.1696507261509 -70.9130742439726 1029.12169728712 1030.52010305068 
! Port Impedance         50               0                50               0                50               0                50               0                
1.126                          0.418668655568515 179.970708535268 0.490409147772726 -0.0117981514323107 0.464168320128435 -0.0144646144517492 0.464093795389283 -0.0153035703739479 
                               0.490409245507568 -0.011795068996067 0.385805344322135 179.969889199199 0.447739365519739 -0.0132028470400096 0.447663355720582 -0.0162480245263947 
                               0.464168378508074 -0.0143910262064787 0.447739292005695 -0.0131065897813301 0.431309101109936 179.991066247499 0.51940010646478 0.0034142945867381 
                               0.464093680216583 -0.0153869929040301 0.447663497613226 -0.0163394441381548 0.519400141164168 0.00355937849356572 0.431165314010955 179.987580909068 
! Gamma     918.279549402681 920.129339303807 0                0                0                0                0                0                
!           0                0                1027.89548092735 1029.34079920019 -15.0734566733873 -14.9366972350557 -0.786789254614439 -0.755178687741497 
!           0                0                -15.0731958770624 -14.936271188052 935.262444798673 937.118340801806 -71.7457441967747 -71.4828531592795 
!           0                0                -0.786764211493197 -0.755130326571493 -71.7467614756261 -71.4848735310127 1037.42893726738 1038.87189176684 
! Port Impedance         50               0                50               0                50               0                50               0                
1.144                          0.418669152849182 179.970466885845 0.490408994238128 -0.0119449182019068 0.464168801483574 -0.0146212021122288 0.464094090860407 -0.0154787207691686 
                               0.490409101717817 -0.0119420446711703 0.385806771624754 179.969530900234 0.44774052213318 -0.013393113326726 0.447664198437632 -0.0165024810647361 
                               0.464168885612898 -0.0145421256870607 0.447740467563442 -0.0132889218174612 0.431310434942568 179.990989966977 0.519399821998901 0.00345399443418906 
                               0.464093941805368 -0.0155681619057427 0.447664328887395 -0.0166018302076789 0.519399904724171 0.00361032900432907 0.431166789378909 179.987417643749 
! Gamma     925.571901561571 927.473478435046 0                0                0                0                0                0                
!           0                0                1036.06237171905 1037.55126111268 -15.1941455468641 -15.0544580292322 -0.793207994168377 -0.760872507448904 
!           0                0                -15.1938476419957 -15.0540124454078 942.690017188767 944.597920990183 -72.3182542742043 -72.0499471270686 
!           0                0                -0.793180302887901 -0.760820809486597 -72.3194307280673 -72.0520721684238 1045.67155264995 1047.15817550616 
! Port Impedance         50               0                50               0                50               0                50               0                
1.162                          0.418669525951942 179.97018242916  0.490408798488157 -0.0120950541169352 0.464169212761062 -0.0147972633705047 0.464094331180874 -0.0156692585653687 
                               0.490408914605423 -0.0120924890118826 0.385808058150307 179.969119244603 0.447741575126828 -0.0136101128718765 0.447664943445742 -0.0167762312392473 
                               0.464169324139842 -0.0147137218935612 0.447741543180795 -0.013499225156628 0.431311637047129 179.990877113154 0.51939960892724 0.00350127632448133 
                               0.464094147094488 -0.0157635297089831 0.447665058056644 -0.0168823857549615 0.519399744124098 0.00366690276230699 0.431168068092076 179.987218073465 
! Gamma     932.808254976142 934.760830044557 0                0                0                0                0                0                
!           0                0                1044.16663041967 1045.69811300011 -15.3139228663229 -15.1712666756172 -0.799570812294315 -0.766518260039754 
!           0                0                -15.3135899545978 -15.1708089437592 950.060553392025 952.019631541077 -72.8864239271907 -72.6125711492194 
!           0                0                -0.799540723844578 -0.766463891347008 -72.8877529678028 -72.6147670898606 1053.85095975455 1055.38028385498 
! Port Impedance         50               0                50               0                50               0                50               0                
1.18                           0.418669762890983 179.969860861668 0.490408563176816 -0.0122477484127055 0.464169548937469 -0.0149901930161511 0.464094512113605 -0.0158731180029941 
                               0.490408686839802 -0.0122455740330755 0.385809189256043 179.968661115976 0.447742518902069 -0.0138502026956187 0.447665588341253 -0.0170663838811244 
                               0.464169688398539 -0.0149031321170111 0.44774251235669 -0.0137337791021236 0.431312700245337 179.990732614011 0.519399464874949 0.00355474089630544 
                               0.464094292586321 -0.0159711244855157 0.447665683604769 -0.0171782809224903 0.519399655484468 0.00372783984809278 0.431169148800632 179.986987856612 
! Gamma     939.989807945272 941.992549597211 0                0                0                0                0                0                
!           0                0                1052.20959747437 1053.78264890433 -15.432807670516 -15.2871433617195 -0.8058796725025 -0.772117233036616 
!           0                0                -15.4324422271727 -15.2866800003511 957.375271996625 959.384652497865 -73.4503459328315 -73.1708164162226 
!           0                0                -0.80584743652708 -0.772060795916512 -73.4518190210002 -73.1730531797886 1061.96851305974 1063.53952019682 
! Port Impedance         50               0                50               0                50               0                50               0                
1.198                          0.418669855625684 179.969507461728 0.490408291137103 -0.0124022950377172 0.464169806845612 -0.0151975849779545 0.464094630935012 -0.0160883873184913 
                               0.490408421278452 -0.0124005778872899 0.385810154843086 179.968162914744 0.447743350275647 -0.0141100317741589 0.447666132501929 -0.0173702960148153 
                               0.464169974646615 -0.0151078744549874 0.447743371112698 -0.0139891549154359 0.431313620425951 179.990561000676 0.519399386891149 0.00361314273154964 
                               0.464094376190509 -0.0161891260289983 0.447666205699882 -0.0174869352096465 0.519399634545913 0.00379203216168058 0.431170033117395 179.986732131541 
! Gamma     947.117709254799 949.169769112695 0                0                0                0                0                0                
!           0                0                1060.19255797503 1061.80613658644 -15.5508183129023 -15.4021078152867 -0.812136433317702 -0.777670618783719 
!           0                0                -15.550423092734 -15.4016445253505 964.635341546219 966.694139866989 -74.0101093033918 -73.724772235512 
!           0                0                -0.81210229602584 -0.77761265614402 -74.0117163745626 -73.7270232425216 1070.02551085274 1071.63716151532 
! Port Impedance         50               0                50               0                50               0                50               0                
1.216                          0.418669799491988 179.969127094642 0.490407985307957 -0.0125580831298186 0.464169984900773 -0.015417227796512 0.464094686215465 -0.0163133061599119 
                               0.490408120892394 -0.0125568752926925 0.385810948718544 179.9676305597   0.447744068107297 -0.0143865325636256 0.447666576792629 -0.0176855639615223 
                               0.464170180807302 -0.0153256637538924 0.447744117611481 -0.0142622080473519 0.431314396072387 179.990366420302 0.519399371588703 0.00367537885463956 
                               0.464094397014574 -0.0164158626460224 0.447666625907837 -0.0178060078510914 0.519399676791003 0.00385851096074202 0.431170725091695 179.986455541907 
! Gamma     954.193062538221 956.29359697561  0                0                0                0                0                0                
!           0                0                1068.11674653345 1069.76981731439 -15.6679725167663 -15.5161792999861 -0.818342853124601 -0.783179523945952 
!           0                0                -15.6675504722372 -15.5157210188203 971.841884936179 973.949225413976 -74.5657996146808 -74.2745260154334 
!           0                0                -0.818307055539109 -0.783120523467741 -74.5675294529281 -74.276767976853 1078.02320018531 1079.67445818954 
! Port Impedance         50               0                50               0                50               0                50               0                
